
**** 02/12/25 00:46:09 **** PSpice 24.1.0 (22 October 2024) *** ID# 0 ********

 * resistor divider circuit


 ****     CIRCUIT DESCRIPTION


******************************************************************************



IIN 1 0 3.0amp
R2 2 0 2.0ohm
R1 1 2 1.0ohm
.SENS v(2)
.END

**** 02/12/25 00:46:09 **** PSpice 24.1.0 (22 October 2024) *** ID# 0 ********

 * resistor divider circuit


 ****     SMALL SIGNAL BIAS SOLUTION       TEMPERATURE =   27.000 DEG C


******************************************************************************



 NODE   VOLTAGE     NODE   VOLTAGE     NODE   VOLTAGE     NODE   VOLTAGE


(    1)   -9.0000  (    2)   -6.0000  




    VOLTAGE SOURCE CURRENTS
    NAME         CURRENT


    TOTAL POWER DISSIPATION   0.00E+00  WATTS


**** 02/12/25 00:46:09 **** PSpice 24.1.0 (22 October 2024) *** ID# 0 ********

 * resistor divider circuit


 ****     DC SENSITIVITY ANALYSIS          TEMPERATURE =   27.000 DEG C


******************************************************************************



DC SENSITIVITIES OF OUTPUT V(2)

         ELEMENT         ELEMENT         ELEMENT       NORMALIZED
          NAME            VALUE       SENSITIVITY     SENSITIVITY
                                      (VOLTS/UNIT) (VOLTS/PERCENT)

          R2            2.000E+00      -3.000E+00      -6.000E-02
          R1            1.000E+00       6.001E-12       6.001E-14
          IIN           3.000E+00      -2.000E+00      -6.000E-02


          JOB CONCLUDED

**** 02/12/25 00:46:09 **** PSpice 24.1.0 (22 October 2024) *** ID# 0 ********

 * resistor divider circuit


 ****     JOB STATISTICS SUMMARY


******************************************************************************



  Total job time (using Solver 1)   =        0.00
