
**** 02/20/25 17:37:31 **** PSpice 24.1.0 (22 October 2024) *** ID# 0 ********

 ** Profile: "SCHEMATIC1-RC_DC"  [ c:\cadence\pspice sim\buffer-pspicefiles\schematic1\rc_dc.sim ] 


 ****     CIRCUIT DESCRIPTION


******************************************************************************




** Creating circuit file "RC_DC.cir" 
** WARNING: THIS AUTOMATICALLY GENERATED FILE MAY BE OVERWRITTEN BY SUBSEQUENT SIMULATIONS

*Libraries: 
* Profile Libraries :
.INC "c:\cadence\pspice sim\buffer-pspicefiles\schematic1\RC_DC\RC_DC_profile.inc" 
* Local Libraries :
* From [PSPICE NETLIST] section of C:\Users\ROG\AppData\Roaming\SPB_Data\cdssetup\OrCAD_PSpice\24.1.0\PSpice.ini file:

**** INCLUDING RC_DC_profile.inc ****
.STMLIB ".\rc_dc.stl" 

**** RESUMING RC_DC.cir ****
.lib "nom.lib" 

*Analysis directives: 
.TRAN  0 5u 0 0.01ns 
.STEP LIN PARAM CVAL 100p 700p 25p 
.OPTIONS ADVCONV
.PROBE64 V(*) I(*) W(*) D(*) NOISE(*) 
.INC "..\SCHEMATIC1.net" 



**** INCLUDING SCHEMATIC1.net ****
* source BUFFER
R_R1         IN N00185  1k TC=0,0 
R_R2         0 N00185  1k TC=0,0 
V_V1         IN 0   STIMULUS=MYPULSE
X_U1         0 N01221 VDD VCC N01196 LF411
V_V2         VDD 0 16V
V_V3         VCC 0 -16V
R_R3         N01221 N00185  1k TC=0,0 
R_R4         N01196 N01221  1k TC=0,0 
R_R5         N01202 N01196  1k TC=0,0 
C_C1         0 N00185  1n  TC=0,0 
C_C2         0 N01202  {CVAL}  TC=0,0 
.PARAM  cval=1n

**** RESUMING RC_DC.cir ****
.END
* C:\Cadence\Pspice sim\buffer-PSpiceFiles\SCHEMATIC1\RC_DC\rc_dc.stl written on Fri Jan 10 16:11:02 2025
* by Stimulus Editor -- Serial Number: 0 -- Version 24.1.0
;!Stimulus Get
;! MYPULSE Analog
;!Ok
;!Plot Axis_Settings
;!Xrange 0s 6.0000001s
;!Yrange 0 1
;!AutoUniverse
;!XminRes 1ns
;!YminRes 1n
;!Ok
.STIMULUS MYPULSE PULSE( 0 1 100n 10n 1u 1 2 )

**** 02/20/25 17:37:31 **** PSpice 24.1.0 (22 October 2024) *** ID# 0 ********

 ** Profile: "SCHEMATIC1-RC_DC"  [ c:\cadence\pspice sim\buffer-pspicefiles\schematic1\rc_dc.sim ] 


 ****     Diode MODEL PARAMETERS


******************************************************************************




               X_U1.dx         X_U1.dy         
          IS  800.000000E-18  800.000000E-18 
          RS    1.000000E-03    1.000000E-03 
         CJO                   10.000000E-12 


**** 02/20/25 17:37:31 **** PSpice 24.1.0 (22 October 2024) *** ID# 0 ********

 ** Profile: "SCHEMATIC1-RC_DC"  [ c:\cadence\pspice sim\buffer-pspicefiles\schematic1\rc_dc.sim ] 


 ****     Junction FET MODEL PARAMETERS


******************************************************************************




               X_U1.jx         
               NJF             
         VTO   -1            
        BETA  743.300000E-06 
          IS   12.500000E-12 


**** 02/20/25 17:37:31 **** PSpice 24.1.0 (22 October 2024) *** ID# 0 ********

 ** Profile: "SCHEMATIC1-RC_DC"  [ c:\cadence\pspice sim\buffer-pspicefiles\schematic1\rc_dc.sim ] 


 ****     INITIAL TRANSIENT SOLUTION       TEMPERATURE =   27.000 DEG C

 ****     CURRENT STEP                     PARAM CVAL =  100.0000E-12


******************************************************************************



 NODE   VOLTAGE     NODE   VOLTAGE     NODE   VOLTAGE     NODE   VOLTAGE


(   IN)    0.0000  (  VCC)  -16.0000  (  VDD)   16.0000  (N00185)-1.103E-06     

(N01196)-5.554E-06 (N01202)-5.554E-06 (N01221)-3.308E-06 (X_U1.6)-321.8E-09     

(X_U1.7)-5.666E-06 (X_U1.8)-5.666E-06 (X_U1.9)    0.0000 (X_U1.10)     .6613    

(X_U1.11)   15.6610                   (X_U1.12)   15.6610                       

(X_U1.53)   14.5000                   (X_U1.54)  -14.5000                       

(X_U1.90)-2.246E-06                   (X_U1.91)   25.0000                       

(X_U1.92)  -25.0000                   (X_U1.99)    0.0000                   




    VOLTAGE SOURCE CURRENTS
    NAME         CURRENT

    V_V1        -1.103E-09
    V_V2        -2.304E-03
    V_V3         2.303E-03
    X_U1.vb     -3.218E-12
    X_U1.vc      1.450E-11
    X_U1.ve      1.649E-11
    X_U1.vlim   -2.246E-09
    X_U1.vlp    -2.500E-11
    X_U1.vln    -2.842E-11

    TOTAL POWER DISSIPATION   7.37E-02  WATTS


**** 02/20/25 17:37:31 **** PSpice 24.1.0 (22 October 2024) *** ID# 0 ********

 ** Profile: "SCHEMATIC1-RC_DC"  [ c:\cadence\pspice sim\buffer-pspicefiles\schematic1\rc_dc.sim ] 


 ****     INITIAL TRANSIENT SOLUTION       TEMPERATURE =   27.000 DEG C

 ****     CURRENT STEP                     PARAM CVAL =  125.0000E-12


******************************************************************************



 NODE   VOLTAGE     NODE   VOLTAGE     NODE   VOLTAGE     NODE   VOLTAGE


(   IN)    0.0000  (  VCC)  -16.0000  (  VDD)   16.0000  (N00185)-1.103E-06     

(N01196)-5.554E-06 (N01202)-5.554E-06 (N01221)-3.308E-06 (X_U1.6)-321.8E-09     

(X_U1.7)-5.666E-06 (X_U1.8)-5.666E-06 (X_U1.9)    0.0000 (X_U1.10)     .6613    

(X_U1.11)   15.6610                   (X_U1.12)   15.6610                       

(X_U1.53)   14.5000                   (X_U1.54)  -14.5000                       

(X_U1.90)-2.246E-06                   (X_U1.91)   25.0000                       

(X_U1.92)  -25.0000                   (X_U1.99)    0.0000                   




    VOLTAGE SOURCE CURRENTS
    NAME         CURRENT

    V_V1        -1.103E-09
    V_V2        -2.304E-03
    V_V3         2.303E-03
    X_U1.vb     -3.218E-12
    X_U1.vc      1.450E-11
    X_U1.ve      1.649E-11
    X_U1.vlim   -2.246E-09
    X_U1.vlp    -2.500E-11
    X_U1.vln    -2.842E-11

    TOTAL POWER DISSIPATION   7.37E-02  WATTS


**** 02/20/25 17:37:31 **** PSpice 24.1.0 (22 October 2024) *** ID# 0 ********

 ** Profile: "SCHEMATIC1-RC_DC"  [ c:\cadence\pspice sim\buffer-pspicefiles\schematic1\rc_dc.sim ] 


 ****     INITIAL TRANSIENT SOLUTION       TEMPERATURE =   27.000 DEG C

 ****     CURRENT STEP                     PARAM CVAL =  150.0000E-12


******************************************************************************



 NODE   VOLTAGE     NODE   VOLTAGE     NODE   VOLTAGE     NODE   VOLTAGE


(   IN)    0.0000  (  VCC)  -16.0000  (  VDD)   16.0000  (N00185)-1.103E-06     

(N01196)-5.554E-06 (N01202)-5.554E-06 (N01221)-3.308E-06 (X_U1.6)-321.8E-09     

(X_U1.7)-5.666E-06 (X_U1.8)-5.666E-06 (X_U1.9)    0.0000 (X_U1.10)     .6613    

(X_U1.11)   15.6610                   (X_U1.12)   15.6610                       

(X_U1.53)   14.5000                   (X_U1.54)  -14.5000                       

(X_U1.90)-2.246E-06                   (X_U1.91)   25.0000                       

(X_U1.92)  -25.0000                   (X_U1.99)    0.0000                   




    VOLTAGE SOURCE CURRENTS
    NAME         CURRENT

    V_V1        -1.103E-09
    V_V2        -2.304E-03
    V_V3         2.303E-03
    X_U1.vb     -3.218E-12
    X_U1.vc      1.450E-11
    X_U1.ve      1.649E-11
    X_U1.vlim   -2.246E-09
    X_U1.vlp    -2.500E-11
    X_U1.vln    -2.842E-11

    TOTAL POWER DISSIPATION   7.37E-02  WATTS


**** 02/20/25 17:37:31 **** PSpice 24.1.0 (22 October 2024) *** ID# 0 ********

 ** Profile: "SCHEMATIC1-RC_DC"  [ c:\cadence\pspice sim\buffer-pspicefiles\schematic1\rc_dc.sim ] 


 ****     INITIAL TRANSIENT SOLUTION       TEMPERATURE =   27.000 DEG C

 ****     CURRENT STEP                     PARAM CVAL =  175.0000E-12


******************************************************************************



 NODE   VOLTAGE     NODE   VOLTAGE     NODE   VOLTAGE     NODE   VOLTAGE


(   IN)    0.0000  (  VCC)  -16.0000  (  VDD)   16.0000  (N00185)-1.103E-06     

(N01196)-5.554E-06 (N01202)-5.554E-06 (N01221)-3.308E-06 (X_U1.6)-321.8E-09     

(X_U1.7)-5.666E-06 (X_U1.8)-5.666E-06 (X_U1.9)    0.0000 (X_U1.10)     .6613    

(X_U1.11)   15.6610                   (X_U1.12)   15.6610                       

(X_U1.53)   14.5000                   (X_U1.54)  -14.5000                       

(X_U1.90)-2.246E-06                   (X_U1.91)   25.0000                       

(X_U1.92)  -25.0000                   (X_U1.99)    0.0000                   




    VOLTAGE SOURCE CURRENTS
    NAME         CURRENT

    V_V1        -1.103E-09
    V_V2        -2.304E-03
    V_V3         2.303E-03
    X_U1.vb     -3.218E-12
    X_U1.vc      1.450E-11
    X_U1.ve      1.649E-11
    X_U1.vlim   -2.246E-09
    X_U1.vlp    -2.500E-11
    X_U1.vln    -2.842E-11

    TOTAL POWER DISSIPATION   7.37E-02  WATTS


**** 02/20/25 17:37:31 **** PSpice 24.1.0 (22 October 2024) *** ID# 0 ********

 ** Profile: "SCHEMATIC1-RC_DC"  [ c:\cadence\pspice sim\buffer-pspicefiles\schematic1\rc_dc.sim ] 


 ****     INITIAL TRANSIENT SOLUTION       TEMPERATURE =   27.000 DEG C

 ****     CURRENT STEP                     PARAM CVAL =  200.0000E-12


******************************************************************************



 NODE   VOLTAGE     NODE   VOLTAGE     NODE   VOLTAGE     NODE   VOLTAGE


(   IN)    0.0000  (  VCC)  -16.0000  (  VDD)   16.0000  (N00185)-1.103E-06     

(N01196)-5.554E-06 (N01202)-5.554E-06 (N01221)-3.308E-06 (X_U1.6)-321.8E-09     

(X_U1.7)-5.666E-06 (X_U1.8)-5.666E-06 (X_U1.9)    0.0000 (X_U1.10)     .6613    

(X_U1.11)   15.6610                   (X_U1.12)   15.6610                       

(X_U1.53)   14.5000                   (X_U1.54)  -14.5000                       

(X_U1.90)-2.246E-06                   (X_U1.91)   25.0000                       

(X_U1.92)  -25.0000                   (X_U1.99)    0.0000                   




    VOLTAGE SOURCE CURRENTS
    NAME         CURRENT

    V_V1        -1.103E-09
    V_V2        -2.304E-03
    V_V3         2.303E-03
    X_U1.vb     -3.218E-12
    X_U1.vc      1.450E-11
    X_U1.ve      1.649E-11
    X_U1.vlim   -2.246E-09
    X_U1.vlp    -2.500E-11
    X_U1.vln    -2.842E-11

    TOTAL POWER DISSIPATION   7.37E-02  WATTS


**** 02/20/25 17:37:31 **** PSpice 24.1.0 (22 October 2024) *** ID# 0 ********

 ** Profile: "SCHEMATIC1-RC_DC"  [ c:\cadence\pspice sim\buffer-pspicefiles\schematic1\rc_dc.sim ] 


 ****     INITIAL TRANSIENT SOLUTION       TEMPERATURE =   27.000 DEG C

 ****     CURRENT STEP                     PARAM CVAL =  225.0000E-12


******************************************************************************



 NODE   VOLTAGE     NODE   VOLTAGE     NODE   VOLTAGE     NODE   VOLTAGE


(   IN)    0.0000  (  VCC)  -16.0000  (  VDD)   16.0000  (N00185)-1.103E-06     

(N01196)-5.554E-06 (N01202)-5.554E-06 (N01221)-3.308E-06 (X_U1.6)-321.8E-09     

(X_U1.7)-5.666E-06 (X_U1.8)-5.666E-06 (X_U1.9)    0.0000 (X_U1.10)     .6613    

(X_U1.11)   15.6610                   (X_U1.12)   15.6610                       

(X_U1.53)   14.5000                   (X_U1.54)  -14.5000                       

(X_U1.90)-2.246E-06                   (X_U1.91)   25.0000                       

(X_U1.92)  -25.0000                   (X_U1.99)    0.0000                   




    VOLTAGE SOURCE CURRENTS
    NAME         CURRENT

    V_V1        -1.103E-09
    V_V2        -2.304E-03
    V_V3         2.303E-03
    X_U1.vb     -3.218E-12
    X_U1.vc      1.450E-11
    X_U1.ve      1.649E-11
    X_U1.vlim   -2.246E-09
    X_U1.vlp    -2.500E-11
    X_U1.vln    -2.842E-11

    TOTAL POWER DISSIPATION   7.37E-02  WATTS


**** 02/20/25 17:37:31 **** PSpice 24.1.0 (22 October 2024) *** ID# 0 ********

 ** Profile: "SCHEMATIC1-RC_DC"  [ c:\cadence\pspice sim\buffer-pspicefiles\schematic1\rc_dc.sim ] 


 ****     INITIAL TRANSIENT SOLUTION       TEMPERATURE =   27.000 DEG C

 ****     CURRENT STEP                     PARAM CVAL =  250.0000E-12


******************************************************************************



 NODE   VOLTAGE     NODE   VOLTAGE     NODE   VOLTAGE     NODE   VOLTAGE


(   IN)    0.0000  (  VCC)  -16.0000  (  VDD)   16.0000  (N00185)-1.103E-06     

(N01196)-5.554E-06 (N01202)-5.554E-06 (N01221)-3.308E-06 (X_U1.6)-321.8E-09     

(X_U1.7)-5.666E-06 (X_U1.8)-5.666E-06 (X_U1.9)    0.0000 (X_U1.10)     .6613    

(X_U1.11)   15.6610                   (X_U1.12)   15.6610                       

(X_U1.53)   14.5000                   (X_U1.54)  -14.5000                       

(X_U1.90)-2.246E-06                   (X_U1.91)   25.0000                       

(X_U1.92)  -25.0000                   (X_U1.99)    0.0000                   




    VOLTAGE SOURCE CURRENTS
    NAME         CURRENT

    V_V1        -1.103E-09
    V_V2        -2.304E-03
    V_V3         2.303E-03
    X_U1.vb     -3.218E-12
    X_U1.vc      1.450E-11
    X_U1.ve      1.649E-11
    X_U1.vlim   -2.246E-09
    X_U1.vlp    -2.500E-11
    X_U1.vln    -2.842E-11

    TOTAL POWER DISSIPATION   7.37E-02  WATTS


**** 02/20/25 17:37:31 **** PSpice 24.1.0 (22 October 2024) *** ID# 0 ********

 ** Profile: "SCHEMATIC1-RC_DC"  [ c:\cadence\pspice sim\buffer-pspicefiles\schematic1\rc_dc.sim ] 


 ****     INITIAL TRANSIENT SOLUTION       TEMPERATURE =   27.000 DEG C

 ****     CURRENT STEP                     PARAM CVAL =  275.0000E-12


******************************************************************************



 NODE   VOLTAGE     NODE   VOLTAGE     NODE   VOLTAGE     NODE   VOLTAGE


(   IN)    0.0000  (  VCC)  -16.0000  (  VDD)   16.0000  (N00185)-1.103E-06     

(N01196)-5.554E-06 (N01202)-5.554E-06 (N01221)-3.308E-06 (X_U1.6)-321.8E-09     

(X_U1.7)-5.666E-06 (X_U1.8)-5.666E-06 (X_U1.9)    0.0000 (X_U1.10)     .6613    

(X_U1.11)   15.6610                   (X_U1.12)   15.6610                       

(X_U1.53)   14.5000                   (X_U1.54)  -14.5000                       

(X_U1.90)-2.246E-06                   (X_U1.91)   25.0000                       

(X_U1.92)  -25.0000                   (X_U1.99)    0.0000                   




    VOLTAGE SOURCE CURRENTS
    NAME         CURRENT

    V_V1        -1.103E-09
    V_V2        -2.304E-03
    V_V3         2.303E-03
    X_U1.vb     -3.218E-12
    X_U1.vc      1.450E-11
    X_U1.ve      1.649E-11
    X_U1.vlim   -2.246E-09
    X_U1.vlp    -2.500E-11
    X_U1.vln    -2.842E-11

    TOTAL POWER DISSIPATION   7.37E-02  WATTS


**** 02/20/25 17:37:31 **** PSpice 24.1.0 (22 October 2024) *** ID# 0 ********

 ** Profile: "SCHEMATIC1-RC_DC"  [ c:\cadence\pspice sim\buffer-pspicefiles\schematic1\rc_dc.sim ] 


 ****     INITIAL TRANSIENT SOLUTION       TEMPERATURE =   27.000 DEG C

 ****     CURRENT STEP                     PARAM CVAL =  300.0000E-12


******************************************************************************



 NODE   VOLTAGE     NODE   VOLTAGE     NODE   VOLTAGE     NODE   VOLTAGE


(   IN)    0.0000  (  VCC)  -16.0000  (  VDD)   16.0000  (N00185)-1.103E-06     

(N01196)-5.554E-06 (N01202)-5.554E-06 (N01221)-3.308E-06 (X_U1.6)-321.8E-09     

(X_U1.7)-5.666E-06 (X_U1.8)-5.666E-06 (X_U1.9)    0.0000 (X_U1.10)     .6613    

(X_U1.11)   15.6610                   (X_U1.12)   15.6610                       

(X_U1.53)   14.5000                   (X_U1.54)  -14.5000                       

(X_U1.90)-2.246E-06                   (X_U1.91)   25.0000                       

(X_U1.92)  -25.0000                   (X_U1.99)    0.0000                   




    VOLTAGE SOURCE CURRENTS
    NAME         CURRENT

    V_V1        -1.103E-09
    V_V2        -2.304E-03
    V_V3         2.303E-03
    X_U1.vb     -3.218E-12
    X_U1.vc      1.450E-11
    X_U1.ve      1.649E-11
    X_U1.vlim   -2.246E-09
    X_U1.vlp    -2.500E-11
    X_U1.vln    -2.842E-11

    TOTAL POWER DISSIPATION   7.37E-02  WATTS


**** 02/20/25 17:37:31 **** PSpice 24.1.0 (22 October 2024) *** ID# 0 ********

 ** Profile: "SCHEMATIC1-RC_DC"  [ c:\cadence\pspice sim\buffer-pspicefiles\schematic1\rc_dc.sim ] 


 ****     INITIAL TRANSIENT SOLUTION       TEMPERATURE =   27.000 DEG C

 ****     CURRENT STEP                     PARAM CVAL =  325.0000E-12


******************************************************************************



 NODE   VOLTAGE     NODE   VOLTAGE     NODE   VOLTAGE     NODE   VOLTAGE


(   IN)    0.0000  (  VCC)  -16.0000  (  VDD)   16.0000  (N00185)-1.103E-06     

(N01196)-5.554E-06 (N01202)-5.554E-06 (N01221)-3.308E-06 (X_U1.6)-321.8E-09     

(X_U1.7)-5.666E-06 (X_U1.8)-5.666E-06 (X_U1.9)    0.0000 (X_U1.10)     .6613    

(X_U1.11)   15.6610                   (X_U1.12)   15.6610                       

(X_U1.53)   14.5000                   (X_U1.54)  -14.5000                       

(X_U1.90)-2.246E-06                   (X_U1.91)   25.0000                       

(X_U1.92)  -25.0000                   (X_U1.99)    0.0000                   




    VOLTAGE SOURCE CURRENTS
    NAME         CURRENT

    V_V1        -1.103E-09
    V_V2        -2.304E-03
    V_V3         2.303E-03
    X_U1.vb     -3.218E-12
    X_U1.vc      1.450E-11
    X_U1.ve      1.649E-11
    X_U1.vlim   -2.246E-09
    X_U1.vlp    -2.500E-11
    X_U1.vln    -2.842E-11

    TOTAL POWER DISSIPATION   7.37E-02  WATTS


**** 02/20/25 17:37:31 **** PSpice 24.1.0 (22 October 2024) *** ID# 0 ********

 ** Profile: "SCHEMATIC1-RC_DC"  [ c:\cadence\pspice sim\buffer-pspicefiles\schematic1\rc_dc.sim ] 


 ****     INITIAL TRANSIENT SOLUTION       TEMPERATURE =   27.000 DEG C

 ****     CURRENT STEP                     PARAM CVAL =  350.0000E-12


******************************************************************************



 NODE   VOLTAGE     NODE   VOLTAGE     NODE   VOLTAGE     NODE   VOLTAGE


(   IN)    0.0000  (  VCC)  -16.0000  (  VDD)   16.0000  (N00185)-1.103E-06     

(N01196)-5.554E-06 (N01202)-5.554E-06 (N01221)-3.308E-06 (X_U1.6)-321.8E-09     

(X_U1.7)-5.666E-06 (X_U1.8)-5.666E-06 (X_U1.9)    0.0000 (X_U1.10)     .6613    

(X_U1.11)   15.6610                   (X_U1.12)   15.6610                       

(X_U1.53)   14.5000                   (X_U1.54)  -14.5000                       

(X_U1.90)-2.246E-06                   (X_U1.91)   25.0000                       

(X_U1.92)  -25.0000                   (X_U1.99)    0.0000                   




    VOLTAGE SOURCE CURRENTS
    NAME         CURRENT

    V_V1        -1.103E-09
    V_V2        -2.304E-03
    V_V3         2.303E-03
    X_U1.vb     -3.218E-12
    X_U1.vc      1.450E-11
    X_U1.ve      1.649E-11
    X_U1.vlim   -2.246E-09
    X_U1.vlp    -2.500E-11
    X_U1.vln    -2.842E-11

    TOTAL POWER DISSIPATION   7.37E-02  WATTS


**** 02/20/25 17:37:31 **** PSpice 24.1.0 (22 October 2024) *** ID# 0 ********

 ** Profile: "SCHEMATIC1-RC_DC"  [ c:\cadence\pspice sim\buffer-pspicefiles\schematic1\rc_dc.sim ] 


 ****     INITIAL TRANSIENT SOLUTION       TEMPERATURE =   27.000 DEG C

 ****     CURRENT STEP                     PARAM CVAL =  375.0000E-12


******************************************************************************



 NODE   VOLTAGE     NODE   VOLTAGE     NODE   VOLTAGE     NODE   VOLTAGE


(   IN)    0.0000  (  VCC)  -16.0000  (  VDD)   16.0000  (N00185)-1.103E-06     

(N01196)-5.554E-06 (N01202)-5.554E-06 (N01221)-3.308E-06 (X_U1.6)-321.8E-09     

(X_U1.7)-5.666E-06 (X_U1.8)-5.666E-06 (X_U1.9)    0.0000 (X_U1.10)     .6613    

(X_U1.11)   15.6610                   (X_U1.12)   15.6610                       

(X_U1.53)   14.5000                   (X_U1.54)  -14.5000                       

(X_U1.90)-2.246E-06                   (X_U1.91)   25.0000                       

(X_U1.92)  -25.0000                   (X_U1.99)    0.0000                   




    VOLTAGE SOURCE CURRENTS
    NAME         CURRENT

    V_V1        -1.103E-09
    V_V2        -2.304E-03
    V_V3         2.303E-03
    X_U1.vb     -3.218E-12
    X_U1.vc      1.450E-11
    X_U1.ve      1.649E-11
    X_U1.vlim   -2.246E-09
    X_U1.vlp    -2.500E-11
    X_U1.vln    -2.842E-11

    TOTAL POWER DISSIPATION   7.37E-02  WATTS


**** 02/20/25 17:37:31 **** PSpice 24.1.0 (22 October 2024) *** ID# 0 ********

 ** Profile: "SCHEMATIC1-RC_DC"  [ c:\cadence\pspice sim\buffer-pspicefiles\schematic1\rc_dc.sim ] 


 ****     INITIAL TRANSIENT SOLUTION       TEMPERATURE =   27.000 DEG C

 ****     CURRENT STEP                     PARAM CVAL =  400.0000E-12


